Using: /usr/cadtool/cad/synopsys/hspice/2020.12-sp2/hspice/linux64/hspice 2.1.sp
 ****** PrimeSim HSPICE -- R-2020.12-SP2 linux64 (May 24 2021 7074677) ******
  Copyright (c) 1986 - 2023 by Synopsys, Inc. All Rights Reserved.
  This software and the associated documentation are proprietary
  to Synopsys, Inc. This software may only be used in accordance
  with the terms and conditions of a written license agreement with
  Synopsys, Inc. All other use, reproduction, or distribution of
  this software is strictly prohibited.
  Input File: 2.1.sp                                                            
  Command line options: /usr/cadtool/cad/synopsys/hspice/2020.12-sp2/hspice/linux64/hspice 2.1.sp
  Start time: Sat Oct 28 02:40:06 2023
 lic:  
 lic: FLEXlm: SDK_12.9.5 
 lic: USER:   u110030039           HOSTNAME: ws24 
 lic: HOSTID: "507c6f09f6b9"       PID:      44509 
 lic: Using FLEXlm license file: 
 lic: 26585@lstn 
 lic: Checkout 1 hspice 
 lic: License/Maintenance for hspice will expire on 31-mar-2024/2023.03 
 lic: 269(in_use)/450(total) FLOATING license(s) on SERVER 26585@lstn 
 lic:   
 

  
      
 *****************************************************************
 ******  option summary
 ******
 runlvl  = 3         bypass  = 2.0000    




 ****     small-signal transfer characteristics

        vin        input resistance at vin       output resistance at v(vout)     v(vout)/vin      

     700.0000m           1.000e+20                      29.0868k                   -2.6211 
     710.0000m           1.000e+20                      29.0541k                   -2.6891 
     720.0000m           1.000e+20                      29.0203k                   -2.7562 
     730.0000m           1.000e+20                      28.9854k                   -2.8224 
     740.0000m           1.000e+20                      28.9491k                   -2.8876 
     750.0000m           1.000e+20                      28.9112k                   -2.9519 
     760.0000m           1.000e+20                      28.8713k                   -3.0151 
     770.0000m           1.000e+20                      28.8290k                   -3.0771 
     780.0000m           1.000e+20                      28.7839k                   -3.1380 
     790.0000m           1.000e+20                      28.7353k                   -3.1975 
     800.0000m           1.000e+20                      28.6825k                   -3.2555 
     810.0000m           1.000e+20                      28.6244k                   -3.3118 
     820.0000m           1.000e+20                      28.5599k                   -3.3661 
     830.0000m           1.000e+20                      28.4872k                   -3.4182 
     840.0000m           1.000e+20                      28.4042k                   -3.4675 
     850.0000m           1.000e+20                      28.3078k                   -3.5136 
     860.0000m           1.000e+20                      28.1941k                   -3.5556 
     870.0000m           1.000e+20                      28.0573k                   -3.5924 
     880.0000m           1.000e+20                      27.8895k                   -3.6225 
     890.0000m           1.000e+20                      27.6791k                   -3.6437 
     900.0000m           1.000e+20                      27.4085k                   -3.6528 
  
 **info** dc convergence successful at Newton-Raphson method 
1****** PrimeSim HSPICE -- R-2020.12-SP2 linux64 (May 24 2021 7074677) ******
 ******  
 *** 110030039 homework 2

 ****** operating point information tnom=  25.000 temp=  25.000 ******
 ****** operating point status is all       simulation time is     0.     
    node    =voltage      node    =voltage      node    =voltage

 +0:vb      =   0.      0:vdd     =   1.8000  0:vin     = 800.0000m
 +0:vout    =   1.0467  0:vs      =   0.     


 **** voltage sources

 subckt                                              
 element  0:vin      0:vb       0:vdd      0:vs      
  volts    800.0000m    0.         1.8000     0.     
  current    0.         1.0469p  -25.1091u   25.1091u
  power      0.         0.        45.1964u    0.     

     total voltage source power dissipation=   45.1964u       watts



 **** resistors

 subckt             
 element  0:r       
  r value   30.0000k
  v drop   753.2731m
  current   25.1091u
  power     18.9140u



 **** mosfets


 subckt             
 element  0:mn      
 model    0:n_18.1  
 region   Saturation
  id        25.1091u
  ibs     -6.989e-21
  ibd     -161.0822a
  vgs      800.0000m
  vds        1.0467 
  vbs        0.     
  vth      394.9095m
  vdsat    335.0076m
  vod      405.0905m
  beta     354.9521u
  gam eff  507.4472m
  gm       113.5296u
  gds        1.5315u
  gmb       21.3513u
  cdtot      1.5500f
  cgtot      7.9133f
  cstot      9.0155f
  cbtot      4.3418f
  cgs        6.9719f
  cgd      408.4554a







 ****     small-signal transfer characteristics

      v(vout)/vin                              =   -3.2555 
      input resistance at             vin      =  1.000e+20
      output resistance at v(vout)             =   28.6825k




          ***** job concluded
 ******  
 *** 110030039 homework 2

 ****** job statistics summary tnom=  25.000 temp=  25.000 ******
  
 ******  Machine Information  ******
 CPU:
 model name	: Intel(R) Xeon(R) Gold 6326 CPU @ 2.90GHz
 cpu MHz	: 3499.859
 CPU(s)		: 64
  
 OS:
 Linux version 3.10.0-1160.95.1.el7.x86_64 (mockbuild@kbuilder.bsys.centos.org) (gcc version 4.8.5 20150623 (Red Hat 4.8.5-44) (GCC) ) #1 SMP Mon Jul 24 13:59:37 UTC 2023

 System loadavg : 2.12 2.13 2.17 4/1219 44512


  ******  PrimeSim HSPICE Threads Information  ******

  Command Line Threads Count :     1
  Available CPU Count        :    64
  Actual Threads Count       :     1


  ******  Circuit Statistics  ******
  # nodes       =       8 # elements   =       6
  # resistors   =       1 # capacitors =       0 # inductors   =       0
  # mutual_inds =       0 # vccs       =       0 # vcvs        =       0
  # cccs        =       0 # ccvs       =       0 # volt_srcs   =       4
  # curr_srcs   =       0 # diodes     =       0 # bjts        =       0
  # jfets       =       0 # mosfets    =       1 # U elements  =       0
  # T elements  =       0 # W elements =       0 # B elements  =       0
  # S elements  =       0 # P elements =       0 # va device   =       0
  # vector_srcs =       0 # N elements =       0


  ******  Runtime Statistics (seconds)  ******

  analysis           time    # points   tot. iter  conv.iter
  op point           0.01           1           5
  dc sweep           0.00          21          45
  readin             0.02
  errchk             0.00
  setup              0.00
  output             0.00


           peak memory used        470.86 megabytes
           total cpu time            0.03 seconds
           total elapsed time        0.52 seconds
           job started at     02:40:06 10/28/2023
           job ended   at     02:40:06 10/28/2023

>info:         ***** hspice job concluded
           job total runtime         0.52 seconds


 lic: Release hspice token(s) 
 lic: total license checkout elapse time:        0.49(s)
