Using: /usr/cadtool/cad/synopsys/hspice/2020.12-sp2/hspice/linux64/hspice 2.1.sp
 ****** PrimeSim HSPICE -- R-2020.12-SP2 linux64 (May 24 2021 7074677) ******
  Copyright (c) 1986 - 2023 by Synopsys, Inc. All Rights Reserved.
  This software and the associated documentation are proprietary
  to Synopsys, Inc. This software may only be used in accordance
  with the terms and conditions of a written license agreement with
  Synopsys, Inc. All other use, reproduction, or distribution of
  this software is strictly prohibited.
  Input File: 2.1.sp                                                            
  Command line options: /usr/cadtool/cad/synopsys/hspice/2020.12-sp2/hspice/linux64/hspice 2.1.sp
  Start time: Sat Oct 28 03:18:05 2023
 lic:  
 lic: FLEXlm: SDK_12.9.5 
 lic: USER:   u110030039           HOSTNAME: ws24 
 lic: HOSTID: "507c6f09f6b9"       PID:      50921 
 lic: Using FLEXlm license file: 
 lic: 26585@lstn 
 lic: Checkout 1 hspice 
 lic: License/Maintenance for hspice will expire on 31-mar-2024/2023.03 
 lic: 246(in_use)/450(total) FLOATING license(s) on SERVER 26585@lstn 
 lic:   
 

  
      
 *****************************************************************
 ******  option summary
 ******
 runlvl  = 3         bypass  = 2.0000    




 ****     small-signal transfer characteristics

        vin        input resistance at vin       output resistance at v(vout)     v(vout)/vin      

     700.0000m           1.000e+20                      34.0387k                   -3.4597 
     710.0000m           1.000e+20                      33.9808k                   -3.5459 
     720.0000m           1.000e+20                      33.9194k                   -3.6303 
     730.0000m           1.000e+20                      33.8539k                   -3.7129 
     740.0000m           1.000e+20                      33.7830k                   -3.7936 
     750.0000m           1.000e+20                      33.7055k                   -3.8719 
     760.0000m           1.000e+20                      33.6194k                   -3.9476 
     770.0000m           1.000e+20                      33.5222k                   -4.0201 
     780.0000m           1.000e+20                      33.4106k                   -4.0889 
     790.0000m           1.000e+20                      33.2795k                   -4.1530 
     800.0000m           1.000e+20                      33.1222k                   -4.2110 
     810.0000m           1.000e+20                      32.9285k                   -4.2610 
     820.0000m           1.000e+20                      32.6829k                   -4.3002 
     830.0000m           1.000e+20                      32.3616k                   -4.3242 
     840.0000m           1.000e+20                      31.9258k                   -4.3257 
     850.0000m           1.000e+20                      31.3102k                   -4.2930 
     860.0000m           1.000e+20                      30.4026k                   -4.2060 
     870.0000m           1.000e+20                      29.0142k                   -4.0312 
     880.0000m           1.000e+20                      26.8871k                   -3.7235 
     890.0000m           1.000e+20                      23.9131k                   -3.2635 
     900.0000m           1.000e+20                      20.5354k                   -2.7269 
  
 **info** dc convergence successful at Newton-Raphson method 
1****** PrimeSim HSPICE -- R-2020.12-SP2 linux64 (May 24 2021 7074677) ******
 ******  
 *** 110030039 homework 2

 ****** operating point information tnom=  25.000 temp=  25.000 ******
 ****** operating point status is all       simulation time is     0.     
    node    =voltage      node    =voltage      node    =voltage

 +0:vb      =   0.      0:vdd     =   1.8000  0:vin     = 800.0000m
 +0:vout    = 801.9205m 0:vs      =   0.     


 **** voltage sources

 subckt                                              
 element  0:vin      0:vb       0:vdd      0:vs      
  volts    800.0000m    0.         1.8000     0.     
  current    0.       802.0524f  -28.1149u   28.1149u
  power      0.         0.        50.6068u    0.     

     total voltage source power dissipation=   50.6068u       watts



 **** resistors

 subckt             
 element  0:r       
  r value   35.5000k
  v drop   998.0795m
  current   28.1149u
  power     28.0609u



 **** mosfets


 subckt             
 element  0:mn      
 model    0:n_18.1  
 region   Saturation
  id        28.1149u
  ibs     -7.399e-21
  ibd     -131.8893a
  vgs      800.0000m
  vds      801.9205m
  vbs        0.     
  vth      395.3452m
  vdsat    334.3371m
  vod      404.6548m
  beta     401.6412u
  gam eff  507.4472m
  gm       127.1657u
  gds        2.0227u
  gmb       24.0628u
  cdtot      1.8127f
  cgtot      8.9516f
  cstot     10.1795f
  cbtot      4.9404f
  cgs        7.8931f
  cgd      465.4772a







 ****     small-signal transfer characteristics

      v(vout)/vin                              =   -4.2110 
      input resistance at             vin      =  1.000e+20
      output resistance at v(vout)             =   33.1222k




          ***** job concluded
 ******  
 *** 110030039 homework 2

 ****** job statistics summary tnom=  25.000 temp=  25.000 ******
  
 ******  Machine Information  ******
 CPU:
 model name	: Intel(R) Xeon(R) Gold 6326 CPU @ 2.90GHz
 cpu MHz	: 3499.859
 CPU(s)		: 64
  
 OS:
 Linux version 3.10.0-1160.95.1.el7.x86_64 (mockbuild@kbuilder.bsys.centos.org) (gcc version 4.8.5 20150623 (Red Hat 4.8.5-44) (GCC) ) #1 SMP Mon Jul 24 13:59:37 UTC 2023

 System loadavg : 2.27 2.17 2.15 4/1186 50924


  ******  PrimeSim HSPICE Threads Information  ******

  Command Line Threads Count :     1
  Available CPU Count        :    64
  Actual Threads Count       :     1


  ******  Circuit Statistics  ******
  # nodes       =       8 # elements   =       6
  # resistors   =       1 # capacitors =       0 # inductors   =       0
  # mutual_inds =       0 # vccs       =       0 # vcvs        =       0
  # cccs        =       0 # ccvs       =       0 # volt_srcs   =       4
  # curr_srcs   =       0 # diodes     =       0 # bjts        =       0
  # jfets       =       0 # mosfets    =       1 # U elements  =       0
  # T elements  =       0 # W elements =       0 # B elements  =       0
  # S elements  =       0 # P elements =       0 # va device   =       0
  # vector_srcs =       0 # N elements =       0


  ******  Runtime Statistics (seconds)  ******

  analysis           time    # points   tot. iter  conv.iter
  op point           0.01           1           6
  dc sweep           0.00          21          49
  readin             0.02
  errchk             0.00
  setup              0.00
  output             0.00


           peak memory used        470.85 megabytes
           total cpu time            0.03 seconds
           total elapsed time        0.52 seconds
           job started at     03:18:05 10/28/2023
           job ended   at     03:18:05 10/28/2023

>info:         ***** hspice job concluded
           job total runtime         0.52 seconds


 lic: Release hspice token(s) 
 lic: total license checkout elapse time:        0.49(s)
