Using: /usr/cadtool/cad/synopsys/hspice/2020.12-sp2/hspice/linux64/hspice hw2.2.sp
 ****** PrimeSim HSPICE -- R-2020.12-SP2 linux64 (May 24 2021 7074677) ******
  Copyright (c) 1986 - 2023 by Synopsys, Inc. All Rights Reserved.
  This software and the associated documentation are proprietary
  to Synopsys, Inc. This software may only be used in accordance
  with the terms and conditions of a written licenseA agreement with
  Synopsys, Inc. All other use, reproduction, or distribution of
  this software is strictly prohibited.
  Input File: hw2.2.sp                                                          
  Command line options: /usr/cadtool/cad/synopsys/hspice/2020.12-sp2/hspice/linux64/hspice hw2.2.sp
  Start time: Sat Oct 28 04:03:53 2023
 lic:  
 lic: FLEXlm: SDK_12.9.5 
 lic: USER:   u110030039           HOSTNAME: ws24 
 lic: HOSTID: "507c6f09f6b9"       PID:      55080 
 lic: Using FLEXlm license file: 
 lic: 26585@lstn 
 lic: Checkout 1 hspice 
 lic: License/Maintenance for hspice will expire on 31-mar-2024/2023.03 
 lic: 256(in_use)/450(total) FLOATING license(s) on SERVER 26585@lstn 
 lic:   
 

  

  **warning** the following singular supplies were terminated to 1 meg resistor 
          supply       node1            node2
(hw2.2.sp:13)vs                      0:vs               defined in subckt 0                     0:0                defined in subckt 0               
      
 *****************************************************************
 ******  option summary
 ******
 runlvl  = 3         bypass  = 2.0000    




 ****     small-signal transfer characteristics

        vin        input resistance at vin       output resistance at v(vout)     v(vout)/vin      

     100.0000m            33.7349k                       8.4294k                    2.6086 
     101.0000m            32.5539k                       8.8242k                    2.7032 
     102.0000m            31.3288k                       9.2638k                    2.8089 
     103.0000m            30.0581k                       9.7561k                    2.9277 
     104.0000m            28.7400k                      10.3111k                    3.0619 
     105.0000m            27.3737k                      10.9410k                    3.2148 
     106.0000m            25.9585k                      11.6613k                    3.3900 
     107.0000m            24.4949k                      12.4917k                    3.5926 
     108.0000m            22.9849k                      13.4569k                    3.8286 
     109.0000m            21.4323k                      14.5887k                    4.1060 
     110.0000m            19.8438k                      15.9274k                    4.4346 
     111.0000m            18.2301k                      17.5237k                    4.8272 
     112.0000m            16.6071k                      19.4400k                    5.2989 
     113.0000m            14.9974k                      21.7490k                    5.8677 
     114.0000m            13.4305k                      24.5286k                    6.5523 
     115.0000m            11.9442k                      27.8430k                    7.3676 
     116.0000m            10.5800k                      31.7141k                    8.3176 
     117.0000m             9.3782k                      36.0763k                    9.3834 
     118.0000m             8.3682k                      40.7438k                   10.5160 
     119.0000m             7.5601k                      45.4258k                   11.6401 
     120.0000m             6.9423k                      49.8101k                   12.6759 
     121.0000m             6.4867k                      53.6672k                   13.5661 
     122.0000m             6.1589k                      56.9029k                   14.2882 
     123.0000m             5.9262k                      59.5380k                   14.8493 
     124.0000m             5.7621k                      61.6554k                   15.2721 
     125.0000m             5.6471k                      63.3552k                   15.5833 
     126.0000m             5.5671k                      64.7292k                   15.8072 
     127.0000m             5.5125k                      65.8529k                   15.9638 
     128.0000m             5.4766k                      66.7844k                   16.0685 
     129.0000m             5.4547k                      67.5679k                   16.1329 
     130.0000m             5.4436k                      68.2363k                   16.1658 
     131.0000m             5.4409k                      68.8141k                   16.1738 
     132.0000m             5.4450k                      69.3202k                   16.1617 
     133.0000m             5.4545k                      69.7684k                   16.1334 
     134.0000m             5.4686k                      70.1698k                   16.0918 
     135.0000m             5.4866k                      70.5327k                   16.0392 
     136.0000m             5.5078k                      70.8639k                   15.9774 
     137.0000m             5.5319k                      71.1684k                   15.9078 
     138.0000m             5.5585k                      71.4506k                   15.8315 
     139.0000m             5.5874k                      71.7138k                   15.7496 
     140.0000m             5.6184k                      71.9609k                   15.6628 
     141.0000m             5.6513k                      72.1942k                   15.5717 
     142.0000m             5.6859k                      72.4154k                   15.4768 
     143.0000m             5.7222k                      72.6262k                   15.3787 
     144.0000m             5.7600k                      72.8280k                   15.2777 
     145.0000m             5.7993k                      73.0219k                   15.1741 
     146.0000m             5.8401k                      73.2087k                   15.0682 
     147.0000m             5.8822k                      73.3894k                   14.9603 
     148.0000m             5.9257k                      73.5646k                   14.8505 
     149.0000m             5.9705k                      73.7349k                   14.7391 
     150.0000m             6.0166k                      73.9009k                   14.6262 
     151.0000m             6.0640k                      74.0630k                   14.5119 
     152.0000m             6.1126k                      74.2215k                   14.3964 
     153.0000m             6.1625k                      74.3769k                   14.2799 
     154.0000m             6.2137k                      74.5295k                   14.1623 
     155.0000m             6.2661k                      74.6794k                   14.0437 
     156.0000m             6.3198k                      74.8270k                   13.9244 
     157.0000m             6.3748k                      74.9724k                   13.8043 
     158.0000m             6.4311k                      75.1158k                   13.6835 
     159.0000m             6.4887k                      75.2574k                   13.5621 
     160.0000m             6.5476k                      75.3973k                   13.4401 
     161.0000m             6.6078k                      75.5357k                   13.3176 
     162.0000m             6.6693k                      75.6727k                   13.1947 
     163.0000m             6.7323k                      75.8083k                   13.0714 
     164.0000m             6.7966k                      75.9426k                   12.9477 
     165.0000m             6.8623k                      76.0758k                   12.8236 
     166.0000m             6.9295k                      76.2079k                   12.6993 
     167.0000m             6.9981k                      76.3390k                   12.5748 
     168.0000m             7.0683k                      76.4691k                   12.4500 
     169.0000m             7.1399k                      76.5982k                   12.3251 
     170.0000m             7.2131k                      76.7265k                   12.2000 
     171.0000m             7.2879k                      76.8539k                   12.0749 
     172.0000m             7.3642k                      76.9805k                   11.9496 
     173.0000m             7.4423k                      77.1063k                   11.8243 
     174.0000m             7.5220k                      77.2314k                   11.6990 
     175.0000m             7.6034k                      77.3557k                   11.5738 
     176.0000m             7.6866k                      77.4793k                   11.4485 
     177.0000m             7.7716k                      77.6023k                   11.3233 
     178.0000m             7.8584k                      77.7245k                   11.1982 
     179.0000m             7.9471k                      77.8461k                   11.0733 
     180.0000m             8.0377k                      77.9670k                   10.9484 
     181.0000m             8.1302k                      78.0873k                   10.8238 
     182.0000m             8.2248k                      78.2069k                   10.6993 
     183.0000m             8.3214k                      78.3259k                   10.5751 
     184.0000m             8.4202k                      78.4443k                   10.4511 
     185.0000m             8.5210k                      78.5620k                   10.3274 
     186.0000m             8.6241k                      78.6791k                   10.2039 
     187.0000m             8.7295k                      78.7956k                   10.0808 
     188.0000m             8.8371k                      78.9115k                    9.9580 
     189.0000m             8.9471k                      79.0267k                    9.8356 
     190.0000m             9.0595k                      79.1413k                    9.7135 
     191.0000m             9.1744k                      79.2552k                    9.5919 
     192.0000m             9.2919k                      79.3686k                    9.4706 
     193.0000m             9.4119k                      79.4812k                    9.3498 
     194.0000m             9.5347k                      79.5933k                    9.2295 
     195.0000m             9.6601k                      79.7046k                    9.1096 
     196.0000m             9.7884k                      79.8154k                    8.9903 
     197.0000m             9.9195k                      79.9254k                    8.8714 
     198.0000m            10.0535k                      80.0348k                    8.7532 
     199.0000m            10.1906k                      80.1435k                    8.6354 
     200.0000m            10.3307k                      80.2515k                    8.5183 
  
 **info** dc convergence successful at Newton-Raphson method 
1****** PrimeSim HSPICE -- R-2020.12-SP2 linux64 (May 24 2021 7074677) ******
 ******  
 *** 110030039 homework 2

 ****** operating point information tnom=  25.000 temp=  25.000 ******
 ****** operating point status is all       simulation time is     0.     
    node    =voltage      node    =voltage      node    =voltage

 +0:vb      = 600.0000m 0:vdd     =   1.8000  0:vin     = 160.0000m
 +0:vout    = 901.1678m 0:vs      =   0.     


 **** voltage sources

 subckt                                              
 element  0:vin      0:vb       0:vdd      0:vs      
  volts    160.0000m  600.0000m    1.8000     0.     
  current   10.2140u    0.       -10.2140u    0.     
  power     -1.6342u    0.        18.3852u    0.     

     total voltage source power dissipation=   16.7510u       watts



 **** resistors

 subckt             
 element  0:r       
  r value   88.0000k
  v drop   898.8322m
  current   10.2140u
  power      9.1807u



 **** mosfets


 subckt             
 element  0:mn      
 model    0:n_18.1  
 region   Saturation
  id        10.2140u
  ibs     -1.653e-21
  ibd     -576.6269a
  vgs      440.0000m
  vds      741.1678m
  vbs        0.     
  vth      384.2957m
  vdsat     90.3048m
  vod       55.7043m
  beta       3.1078m
  gam eff  507.4460m
  gm       176.3657u
  gds        1.8995u
  gmb       36.0674u
  cdtot     13.2177f
  cgtot     63.7850f
  cstot     70.4911f
  cbtot     37.3373f
  cgs       53.6332f
  cgd        3.5795f







 ****     small-signal transfer characteristics

      v(vout)/vin                              =   13.4401 
      input resistance at             vin      =    6.5476k
      output resistance at v(vout)             =   75.3973k




          ***** job concluded
 ******  
 *** 110030039 homework 2

 ****** job statistics summary tnom=  25.000 temp=  25.000 ******
  
 ******  Machine Information  ******
 CPU:
 model name	: Intel(R) Xeon(R) Gold 6326 CPU @ 2.90GHz
 cpu MHz	: 813.323
 CPU(s)		: 64
  
 OS:
 Linux version 3.10.0-1160.95.1.el7.x86_64 (mockbuild@kbuilder.bsys.centos.org) (gcc version 4.8.5 20150623 (Red Hat 4.8.5-44) (GCC) ) #1 SMP Mon Jul 24 13:59:37 UTC 2023

 System loadavg : 2.09 2.08 2.12 4/1180 55084


  ******  PrimeSim HSPICE Threads Information  ******

  Command Line Threads Count :     1
  Available CPU Count        :    64
  Actual Threads Count       :     1


  ******  Circuit Statistics  ******
  # nodes       =       8 # elements   =       7
  # resistors   =       2 # capacitors =       0 # inductors   =       0
  # mutual_inds =       0 # vccs       =       0 # vcvs        =       0
  # cccs        =       0 # ccvs       =       0 # volt_srcs   =       4
  # curr_srcs   =       0 # diodes     =       0 # bjts        =       0
  # jfets       =       0 # mosfets    =       1 # U elements  =       0
  # T elements  =       0 # W elements =       0 # B elements  =       0
  # S elements  =       0 # P elements =       0 # va device   =       0
  # vector_srcs =       0 # N elements =       0


  ******  Runtime Statistics (seconds)  ******

  analysis           time    # points   tot. iter  conv.iter
  op point           0.00           1           5
  dc sweep           0.00         101         217
  readin             0.02
  errchk             0.00
  setup              0.00
  output             0.00


           peak memory used        470.86 megabytes
           total cpu time            0.03 seconds
           total elapsed time        0.52 seconds
           job started at     04:03:53 10/28/2023
           job ended   at     04:03:54 10/28/2023

>info:         ***** hspice job concluded
           job total runtime         0.52 seconds


 lic: Release hspice token(s) 
 lic: total license checkout elapse time:        0.49(s)
